* T-Spice 13.00 Simulation	Wed Feb 14 10:44:38 2024	C:\Users\0413\AppData\Local\Temp\rough.sp
* Command line: tspice -o C:\Users\0413\AppData\Local\Temp\rough.out C:\Users\0413\AppData\Local\Temp\rough.sp 
* T-Spice Win32 13.00.20080321.01:01:33

*SEDIT: Alter blocks = 0

* Accuracy and Convergence options:
* numndset|dchold = 100
* 
* Timestep and Integration options:
*  relq|relchgtol = 0.0005
* 
* Model Evaluation options:
*            dcap = 2                    defnrb = 0 [sq]               defnrd = 0 [sq]
*          defnrs = 0 [sq]                 tnom = 25 [deg C]
* 
* General options:
*            temp = 25 [deg C]          threads = 4
* 
* Output options:
*           acout = 1                    ingold = 0
* 


*  Device and node counts:
*             MOSFETs - 471               MOSFET geometries - 18      
*                BJTs - 0                             JFETs - 0       
*             MESFETs - 0                            Diodes - 0       
*          Capacitors - 0                         Resistors - 0       
*           Inductors - 0                  Mutual inductors - 0       
*  Transmission lines - 0        Coupled transmission lines - 0       
*     Voltage sources - 3                   Current sources - 0       
*                VCVS - 0                              VCCS - 0       
*                CCVS - 0                              CCCS - 0       
*    V-control switch - 0                  I-control switch - 0       
*       Macro devices - 0        External C model instances - 0       
*         HDL devices - 0       
*         Subcircuits - 0              Subcircuit instances - 72      
*   Independent nodes - 221                  Boundary nodes - 4       
*         Total nodes - 225     


*SEDIT: Alter=0
*SEDIT: Analysis types DCOP 0 ACMODEL 0 AC 0 TRANSIENT 1 TRANSFER 0 NOISE 0 

*WEDIT: .tran   1e-009   1e-006
TRANSIENT ANALYSIS
Time<s>          v(N_4)<V>      v(0)<V>     v(Up)<V>    v(CLK)<V>     v(Q0)<V>     v(Q1)<V>     v(Q2)<V>     v(Q3)<V>     v(Q4)<V>     v(Q5)<V>     v(Q6)<V>     v(Q7)<V>     v(Q8)<V>     v(Q9)<V>    v(Q10)<V>    v(Q11)<V>
 0.000000e+000  1.8000e+000  0.0000e+000  0.0000e+000  0.0000e+000  1.8000e+000  1.8000e+000  1.8000e+000  1.8000e+000  1.5827e-009  1.8000e+000  1.8000e+000  1.8000e+000  1.8000e+000  1.8000e+000  1.8000e+000  1.8000e+000
 6.250000e-011  1.8198e+000  0.0000e+000  1.1250e+000  1.1250e+000  1.3495e+000  1.3849e+000  1.3849e+000  1.3837e+000 -1.9228e-002  1.3838e+000  1.3838e+000  1.3838e+000  1.3838e+000  1.3838e+000  1.3838e+000  1.8002e+000
 9.375000e-011  1.8235e+000  0.0000e+000  1.6875e+000  1.6875e+000  1.2095e+000  1.2704e+000  1.2704e+000  1.2683e+000 -2.8964e-002  1.2687e+000  1.2686e+000  1.2684e+000  1.2686e+000  1.2687e+000  1.2686e+000  1.8001e+000
 1.000000e-010  1.8239e+000  0.0000e+000  1.8000e+000  1.8000e+000  1.1896e+000  1.2567e+000  1.2568e+000  1.2544e+000 -2.9101e-002  1.2551e+000  1.2551e+000  1.2545e+000  1.2550e+000  1.2551e+000  1.2551e+000  1.8001e+000
 1.096507e-010  1.8202e+000  0.0000e+000  1.8000e+000  1.8000e+000  1.1787e+000  1.2580e+000  1.2589e+000  1.2570e+000 -2.5537e-002  1.2582e+000  1.2582e+000  1.2572e+000  1.2579e+000  1.2582e+000  1.2582e+000  1.7999e+000
 1.292648e-010  1.8156e+000  0.0000e+000  1.8000e+000  1.8000e+000  1.1902e+000  1.3016e+000  1.3027e+000  1.3022e+000 -1.4749e-002  1.3039e+000  1.3039e+000  1.3026e+000  1.3032e+000  1.3039e+000  1.3039e+000  1.7999e+000
 1.501316e-010  1.8116e+000  0.0000e+000  1.8000e+000  1.8000e+000  1.2098e+000  1.3583e+000  1.3588e+000  1.3599e+000 -4.4457e-003  1.3619e+000  1.3619e+000  1.3605e+000  1.3607e+000  1.3619e+000  1.3619e+000  1.8000e+000
 1.663953e-010  1.8094e+000  0.0000e+000  1.8000e+000  1.8000e+000  1.2286e+000  1.4082e+000  1.4071e+000  1.4098e+000  4.6188e-004  1.4104e+000  1.4109e+000  1.4105e+000  1.4090e+000  1.4104e+000  1.4109e+000  1.8002e+000
 1.818068e-010  1.8076e+000  0.0000e+000  1.8000e+000  1.8000e+000  1.2454e+000  1.4530e+000  1.4484e+000  1.4528e+000  2.4136e-003  1.4515e+000  1.4525e+000  1.4535e+000  1.4520e+000  1.4515e+000  1.4525e+000  1.8004e+000
 1.960863e-010  1.8062e+000  0.0000e+000  1.8000e+000  1.8000e+000  1.2622e+000  1.4912e+000  1.4834e+000  1.4888e+000  3.0383e-003  1.4870e+000  1.4878e+000  1.4895e+000  1.4883e+000  1.4870e+000  1.4878e+000  1.8008e+000
 2.103660e-010  1.8049e+000  0.0000e+000  1.8000e+000  1.8000e+000  1.2810e+000  1.5250e+000  1.5159e+000  1.5211e+000  3.1195e-003  1.5195e+000  1.5203e+000  1.5218e+000  1.5210e+000  1.5195e+000  1.5203e+000  1.8014e+000
 2.252314e-010  1.8035e+000  0.0000e+000  1.8000e+000  1.8000e+000  1.3035e+000  1.5556e+000  1.5469e+000  1.5516e+000  2.9898e-003  1.5503e+000  1.5506e+000  1.5521e+000  1.5521e+000  1.5503e+000  1.5506e+000  1.8025e+000
 2.417455e-010  1.8018e+000  0.0000e+000  1.8000e+000  1.8000e+000  1.3319e+000  1.5854e+000  1.5780e+000  1.5818e+000  2.7044e-003  1.5816e+000  1.5809e+000  1.5821e+000  1.5827e+000  1.5816e+000  1.5809e+000  1.8040e+000
 2.588577e-010  1.8005e+000  0.0000e+000  1.8000e+000  1.8000e+000  1.3645e+000  1.6126e+000  1.6066e+000  1.6094e+000  2.3684e-003  1.6099e+000  1.6092e+000  1.6098e+000  1.6105e+000  1.6099e+000  1.6092e+000  1.8049e+000
 2.768998e-010  1.8002e+000  0.0000e+000  1.8000e+000  1.8000e+000  1.4009e+000  1.6381e+000  1.6343e+000  1.6349e+000  2.0548e-003  1.6362e+000  1.6351e+000  1.6357e+000  1.6362e+000  1.6362e+000  1.6351e+000  1.8048e+000
 2.967864e-010  1.8011e+000  0.0000e+000  1.8000e+000  1.8000e+000  1.4420e+000  1.6627e+000  1.6617e+000  1.6591e+000  1.7698e-003  1.6617e+000  1.6606e+000  1.6609e+000  1.6612e+000  1.6617e+000  1.6606e+000  1.8049e+000
 3.196474e-010  1.8038e+000  0.0000e+000  1.8000e+000  1.8000e+000  1.4887e+000  1.6869e+000  1.6895e+000  1.6839e+000  1.5356e-003  1.6875e+000  1.6870e+000  1.6867e+000  1.6869e+000  1.6875e+000  1.6870e+000  1.8060e+000
 3.427175e-010  1.8072e+000  0.0000e+000  1.8000e+000  1.8000e+000  1.5336e+000  1.7073e+000  1.7138e+000  1.7061e+000  1.3353e-003  1.7101e+000  1.7100e+000  1.7096e+000  1.7097e+000  1.7101e+000  1.7100e+000  1.8100e+000
 3.653404e-010  1.8094e+000  0.0000e+000  1.8000e+000  1.8000e+000  1.5739e+000  1.7241e+000  1.7332e+000  1.7248e+000  1.1314e-003  1.7288e+000  1.7291e+000  1.7288e+000  1.7287e+000  1.7289e+000  1.7292e+000  1.8166e+000
 3.891831e-010  1.8110e+000  0.0000e+000  1.8000e+000  1.8000e+000  1.6117e+000  1.7388e+000  1.7484e+000  1.7416e+000  9.3506e-004  1.7454e+000  1.7460e+000  1.7454e+000  1.7454e+000  1.7454e+000  1.7460e+000  1.8233e+000
 4.129056e-010  1.8135e+000  0.0000e+000  1.8000e+000  1.8000e+000  1.6446e+000  1.7508e+000  1.7575e+000  1.7562e+000  7.4814e-004  1.7587e+000  1.7590e+000  1.7586e+000  1.7585e+000  1.7586e+000  1.7590e+000  1.8281e+000
 4.367456e-010  1.8164e+000  0.0000e+000  1.8000e+000  1.8000e+000  1.6729e+000  1.7605e+000  1.7607e+000  1.7694e+000  5.2831e-004  1.7678e+000  1.7681e+000  1.7677e+000  1.7676e+000  1.7677e+000  1.7680e+000  1.8306e+000
 4.606746e-010  1.8206e+000  0.0000e+000  1.8000e+000  1.8000e+000  1.6970e+000  1.7684e+000  1.7600e+000  1.7796e+000  2.5063e-004  1.7715e+000  1.7717e+000  1.7714e+000  1.7714e+000  1.7715e+000  1.7717e+000  1.8302e+000
 4.869863e-010  1.8286e+000  0.0000e+000  1.8000e+000  1.8000e+000  1.7187e+000  1.7752e+000  1.7591e+000  1.7826e+000 -1.2062e-004  1.7680e+000  1.7682e+000  1.7679e+000  1.7679e+000  1.7680e+000  1.7682e+000  1.8235e+000
 5.118750e-010  1.8380e+000  0.0000e+000  1.8000e+000  1.8000e+000  1.7351e+000  1.7804e+000  1.7612e+000  1.7717e+000 -5.0453e-004  1.7569e+000  1.7570e+000  1.7568e+000  1.7571e+000  1.7572e+000  1.7572e+000  1.8074e+000
 5.328236e-010  1.8455e+000  0.0000e+000  1.8000e+000  1.8000e+000  1.7465e+000  1.7839e+000  1.7650e+000  1.7505e+000 -8.1340e-004  1.7420e+000  1.7420e+000  1.7420e+000  1.7426e+000  1.7427e+000  1.7427e+000  1.7855e+000
 5.543649e-010  1.8506e+000  0.0000e+000  1.8000e+000  1.8000e+000  1.7562e+000  1.7870e+000  1.7698e+000  1.7179e+000 -1.1081e-003  1.7220e+000  1.7220e+000  1.7220e+000  1.7232e+000  1.7232e+000  1.7233e+000  1.7551e+000
 5.851614e-010  1.8553e+000  0.0000e+000  1.8000e+000  1.8000e+000  1.7671e+000  1.7904e+000  1.7764e+000  1.6637e+000 -1.4842e-003  1.6882e+000  1.6882e+000  1.6882e+000  1.6884e+000  1.6884e+000  1.6884e+000  1.6991e+000
 6.207751e-010  1.8529e+000  0.0000e+000  1.8000e+000  1.8000e+000  1.7765e+000  1.7932e+000  1.7828e+000  1.6295e+000 -1.8752e-003  1.6479e+000  1.6479e+000  1.6479e+000  1.6388e+000  1.6388e+000  1.6388e+000  1.6169e+000
 6.475857e-010  1.8361e+000  0.0000e+000  1.8000e+000  1.8000e+000  1.7818e+000  1.7948e+000  1.7866e+000  1.6340e+000 -2.1554e-003  1.6185e+000  1.6185e+000  1.6185e+000  1.5953e+000  1.5953e+000  1.5953e+000  1.5412e+000
 6.658918e-010  1.8101e+000  0.0000e+000  1.8000e+000  1.8000e+000  1.7847e+000  1.7957e+000  1.7887e+000  1.6455e+000 -2.3471e-003  1.5980e+000  1.5980e+000  1.5980e+000  1.5623e+000  1.5623e+000  1.5623e+000  1.4800e+000
 6.876676e-010  1.7707e+000  0.0000e+000  1.8000e+000  1.8000e+000  1.7875e+000  1.7965e+000  1.7908e+000  1.6646e+000 -2.5736e-003  1.5697e+000  1.5697e+000  1.5697e+000  1.5192e+000  1.5192e+000  1.5192e+000  1.3920e+000
 7.086098e-010  1.7368e+000  0.0000e+000  1.8000e+000  1.8000e+000  1.7898e+000  1.7971e+000  1.7925e+000  1.6844e+000 -2.7944e-003  1.5309e+000  1.5309e+000  1.5309e+000  1.4742e+000  1.4742e+000  1.4742e+000  1.2949e+000
 7.240037e-010  1.7212e+000  0.0000e+000  1.8000e+000  1.8000e+000  1.7911e+000  1.7975e+000  1.7935e+000  1.6983e+000 -2.9651e-003  1.4897e+000  1.4897e+000  1.4899e+000  1.4391e+000  1.4392e+000  1.4392e+000  1.2198e+000
 7.385663e-010  1.7114e+000  0.0000e+000  1.8000e+000  1.8000e+000  1.7923e+000  1.7979e+000  1.7944e+000  1.7104e+000 -3.1416e-003  1.4390e+000  1.4390e+000  1.4394e+000  1.4049e+000  1.4049e+000  1.4049e+000  1.1479e+000
 7.608330e-010  1.7020e+000  0.0000e+000  1.8000e+000  1.8000e+000  1.7938e+000  1.7983e+000  1.7955e+000  1.7266e+000 -3.4345e-003  1.3428e+000  1.3428e+000  1.3435e+000  1.3513e+000  1.3514e+000  1.3514e+000  1.0379e+000
 7.887912e-010  1.6963e+000  0.0000e+000  1.8000e+000  1.8000e+000  1.7952e+000  1.7987e+000  1.7966e+000  1.7433e+000 -3.8258e-003  1.2050e+000  1.2050e+000  1.2050e+000  1.2831e+000  1.2831e+000  1.2831e+000  9.0260e-001
 8.197647e-010  1.6960e+000  0.0000e+000  1.8000e+000  1.8000e+000  1.7964e+000  1.7990e+000  1.7975e+000  1.7577e+000 -4.0726e-003  1.0779e+000  1.0779e+000  1.0728e+000  1.2070e+000  1.2070e+000  1.2070e+000  7.5943e-001
 8.544633e-010  1.7029e+000  0.0000e+000  1.8000e+000  1.8000e+000  1.7975e+000  1.7993e+000  1.7982e+000  1.7696e+000 -2.7872e-003  1.0184e+000  1.0184e+000  1.0038e+000  1.1201e+000  1.1201e+000  1.1201e+000  6.1950e-001
 8.901520e-010  1.7158e+000  0.0000e+000  1.8000e+000  1.8000e+000  1.7982e+000  1.7995e+000  1.7987e+000  1.7784e+000  2.3881e-003  1.0437e+000  1.0437e+000  1.0195e+000  1.0287e+000  1.0287e+000  1.0287e+000  4.9630e-001
 9.160116e-010  1.7267e+000  0.0000e+000  1.8000e+000  1.8000e+000  1.7986e+000  1.7996e+000  1.7990e+000  1.7832e+000  9.6974e-003  1.0998e+000  1.0998e+000  1.0702e+000  9.6133e-001  9.6135e-001  9.6135e-001  3.8702e-001
 9.403303e-010  1.7367e+000  0.0000e+000  1.8000e+000  1.8000e+000  1.7989e+000  1.7997e+000  1.7992e+000  1.7867e+000  2.0339e-002  1.1690e+000  1.1690e+000  1.1359e+000  8.9598e-001  8.9599e-001  8.9600e-001  2.5300e-001
 9.630574e-010  1.7454e+000  0.0000e+000  1.8000e+000  1.8000e+000  1.7991e+000  1.7998e+000  1.7994e+000  1.7893e+000  3.4847e-002  1.2431e+000  1.2431e+000  1.2082e+000  8.3113e-001  8.3114e-001  8.3115e-001  1.3472e-001
 9.827694e-010  1.7521e+000  0.0000e+000  1.8000e+000  1.8000e+000  1.7993e+000  1.7998e+000  1.7995e+000  1.7912e+000  5.2599e-002  1.3100e+000  1.3100e+000  1.2753e+000  7.6943e-001  7.6945e-001  7.6946e-001  7.2851e-002
 1.006070e-009  1.7591e+000  0.0000e+000  1.8000e+000  1.8000e+000  1.7994e+000  1.7998e+000  1.7996e+000  1.7929e+000  8.3371e-002  1.3860e+000  1.3860e+000  1.3537e+000  6.8611e-001  6.8613e-001  6.8613e-001  3.8652e-002
 1.025565e-009  1.7642e+000  0.0000e+000  1.8000e+000  1.8000e+000  1.7995e+000  1.7999e+000  1.7997e+000  1.7941e+000  1.2080e-001  1.4440e+000  1.4440e+000  1.4148e+000  6.0508e-001  6.0510e-001  6.0510e-001  2.4841e-002
 1.041765e-009  1.7679e+000  0.0000e+000  1.8000e+000  1.8000e+000  1.7996e+000  1.7999e+000  1.7997e+000  1.7950e+000  1.6175e-001  1.4875e+000  1.4875e+000  1.4610e+000  5.2673e-001  5.2675e-001  5.2675e-001  1.7351e-002
 1.061479e-009  1.7719e+000  0.0000e+000  1.8000e+000  1.8000e+000  1.7997e+000  1.7999e+000  1.7998e+000  1.7959e+000  2.2320e-001  1.5346e+000  1.5346e+000  1.5114e+000  4.1428e-001  4.1429e-001  4.1430e-001  1.0109e-002
 1.088535e-009  1.7764e+000  0.0000e+000  1.8000e+000  1.8000e+000  1.7997e+000  1.7999e+000  1.7998e+000  1.7968e+000  3.2553e-001  1.5895e+000  1.5894e+000  1.5704e+000  2.6338e-001  2.6339e-001  2.6339e-001 -8.8074e-004
 1.119639e-009  1.7806e+000  0.0000e+000  1.8000e+000  1.8000e+000  1.7998e+000  1.7999e+000  1.7999e+000  1.7976e+000  4.6332e-001  1.6400e+000  1.6400e+000  1.6251e+000  1.4476e-001  1.4477e-001  1.4477e-001 -7.2934e-003
 1.154226e-009  1.7841e+000  0.0000e+000  1.8000e+000  1.8000e+000  1.7999e+000  1.8000e+000  1.7999e+000  1.7983e+000  6.0664e-001  1.6831e+000  1.6830e+000  1.6719e+000  8.5485e-002  8.5486e-002  8.5486e-002 -3.4047e-003
 1.193942e-009  1.7872e+000  0.0000e+000  1.8000e+000  1.8000e+000  1.7999e+000  1.8000e+000  1.7999e+000  1.7989e+000  7.3143e-001  1.7191e+000  1.7191e+000  1.7112e+000  6.3310e-002  6.3294e-002  6.3287e-002 -8.6503e-004
 1.226949e-009  1.7893e+000  0.0000e+000  1.8000e+000  1.8000e+000  1.7999e+000  1.8000e+000  1.8000e+000  1.7992e+000  8.0387e-001  1.7406e+000  1.7406e+000  1.7348e+000  6.1278e-002  6.1242e-002  6.1226e-002  5.5122e-003
 1.257991e-009  1.7908e+000  0.0000e+000  1.8000e+000  1.8000e+000  1.7999e+000  1.8000e+000  1.8000e+000  1.7994e+000  8.7648e-001  1.7557e+000  1.7557e+000  1.7513e+000  6.1554e-002  6.1496e-002  6.1470e-002  1.0719e-002
 1.288334e-009  1.7921e+000  0.0000e+000  1.8000e+000  1.8000e+000  1.8000e+000  1.8000e+000  1.8000e+000  1.7995e+000  9.9480e-001  1.7669e+000  1.7668e+000  1.7635e+000  5.4742e-002  5.4648e-002  5.4605e-002  9.4124e-003
 1.324077e-009  1.7932e+000  0.0000e+000  1.8000e+000  1.8000e+000  1.8000e+000  1.8000e+000  1.8000e+000  1.7997e+000  1.1721e+000  1.7765e+000  1.7765e+000  1.7741e+000  4.2645e-002  4.2561e-002  4.2531e-002  6.3150e-003
 1.360367e-009  1.7941e+000  0.0000e+000  1.8000e+000  1.8000e+000  1.8000e+000  1.8000e+000  1.8000e+000  1.7998e+000  1.3274e+000  1.7834e+000  1.7834e+000  1.7818e+000  3.2394e-002  3.2398e-002  3.2462e-002  3.7395e-003
 1.395537e-009  1.7948e+000  0.0000e+000  1.8000e+000  1.8000e+000  1.8000e+000  1.8000e+000  1.8000e+000  1.7999e+000  1.4590e+000  1.7882e+000  1.7882e+000  1.7870e+000  2.4080e-002  2.4349e-002  2.4556e-002  1.7623e-003
 1.430653e-009  1.7953e+000  0.0000e+000  1.8000e+000  1.8000e+000  1.8000e+000  1.8000e+000  1.8000e+000  1.7999e+000  1.5583e+000  1.7918e+000  1.7917e+000  1.7907e+000  1.9308e-002  1.9634e-002  1.9755e-002  8.5651e-004
 1.464412e-009  1.7957e+000  0.0000e+000  1.8000e+000  1.8000e+000  1.8000e+000  1.8000e+000  1.8000e+000  1.7999e+000  1.6312e+000  1.7941e+000  1.7941e+000  1.7933e+000  1.6412e-002  1.6478e-002  1.6351e-002  3.8173e-004
 1.495783e-009  1.7960e+000  0.0000e+000  1.8000e+000  1.8000e+000  1.8000e+000  1.8000e+000  1.8000e+000  1.7999e+000  1.6799e+000  1.7956e+000  1.7956e+000  1.7951e+000  1.3198e-002  1.3098e-002  1.2961e-002  1.8135e-004
 1.528315e-009  1.7963e+000  0.0000e+000  1.8000e+000  1.8000e+000  1.8000e+000  1.8000e+000  1.8000e+000  1.8000e+000  1.7171e+000  1.7967e+000  1.7967e+000  1.7964e+000  1.0249e-002  1.0124e-002  9.9920e-003  8.2270e-005
 1.560666e-009  1.7965e+000  0.0000e+000  1.8000e+000  1.8000e+000  1.8000e+000  1.8000e+000  1.8000e+000  1.8000e+000  1.7428e+000  1.7975e+000  1.7975e+000  1.7974e+000  7.9301e-003  7.7990e-003  7.7384e-003  1.7219e-005
 1.587526e-009  1.7967e+000  0.0000e+000  1.8000e+000  1.8000e+000  1.8000e+000  1.8000e+000  1.8000e+000  1.8000e+000  1.7583e+000  1.7981e+000  1.7981e+000  1.7980e+000  6.4379e-003  6.3215e-003  6.2950e-003  1.2931e-005
 1.608945e-009  1.7968e+000  0.0000e+000  1.8000e+000  1.8000e+000  1.8000e+000  1.8000e+000  1.8000e+000  1.8000e+000  1.7675e+000  1.7984e+000  1.7984e+000  1.7984e+000  5.4655e-003  5.3923e-003  5.3259e-003  2.7771e-005
 1.628812e-009  1.7969e+000  0.0000e+000  1.8000e+000  1.8000e+000  1.8000e+000  1.8000e+000  1.8000e+000  1.8000e+000  1.7744e+000  1.7987e+000  1.7987e+000  1.7986e+000  4.6361e-003  4.5861e-003  4.5635e-003  4.2696e-005
 1.650865e-009  1.7970e+000  0.0000e+000  1.8000e+000  1.8000e+000  1.8000e+000  1.8000e+000  1.8000e+000  1.8000e+000  1.7803e+000  1.7989e+000  1.7989e+000  1.7989e+000  3.8374e-003  3.8043e-003  3.8619e-003  3.0697e-005
 1.693711e-009  1.7972e+000  0.0000e+000  1.8000e+000  1.8000e+000  1.8000e+000  1.8000e+000  1.8000e+000  1.8000e+000  1.7884e+000  1.7993e+000  1.7993e+000  1.7993e+000  2.6740e-003  2.6139e-003  2.7341e-003  5.6106e-006
 1.765396e-009  1.7974e+000  0.0000e+000  1.8000e+000  1.8000e+000  1.8000e+000  1.8000e+000  1.8000e+000  1.8000e+000  1.7954e+000  1.7996e+000  1.7996e+000  1.7996e+000  1.5647e-003  1.5832e-003  1.5853e-003 -6.4169e-006
 1.836878e-009  1.7975e+000  0.0000e+000  1.8000e+000  1.8000e+000  1.8000e+000  1.8000e+000  1.8000e+000  1.8000e+000  1.7982e+000  1.7998e+000  1.7998e+000  1.7998e+000  8.7267e-004  9.0899e-004  8.8631e-004 -3.9509e-006
 1.875010e-009  1.7978e+000  0.0000e+000  1.8000e+000  1.8000e+000  1.8000e+000  1.8000e+000  1.8000e+000  1.8000e+000  1.7989e+000  1.7999e+000  1.7999e+000  1.7999e+000  6.2971e-004  6.3879e-004  6.3645e-004 -4.9040e-006
 1.914040e-009  1.7980e+000  0.0000e+000  1.8000e+000  1.8000e+000  1.8000e+000  1.8000e+000  1.8000e+000  1.8000e+000  1.7993e+000  1.8000e+000  1.8000e+000  1.7999e+000  4.6028e-004  4.7090e-004  4.6498e-004 -9.5290e-007
 1.951006e-009  1.7981e+000  0.0000e+000  1.8000e+000  1.8000e+000  1.8000e+000  1.8000e+000  1.8000e+000  1.8000e+000  1.7996e+000  1.7999e+000  1.8001e+000  1.7999e+000  3.3802e-004  3.4450e-004  3.4136e-004 -5.2084e-006
 1.995920e-009  1.7982e+000  0.0000e+000  1.8000e+000  1.8000e+000  1.8000e+000  1.8000e+000  1.8000e+000  1.8000e+000  1.7998e+000  1.8000e+000  1.8000e+000  1.8000e+000  2.2945e-004  2.3151e-004  2.2893e-004 -1.1368e-005
 2.055566e-009  1.7983e+000  0.0000e+000  1.8000e+000  1.8000e+000  1.8000e+000  1.8000e+000  1.8000e+000  1.8000e+000  1.7999e+000  1.7999e+000  1.7999e+000  1.8000e+000  1.3859e-004  1.3230e-004  1.3088e-004 -1.5437e-005
 2.121940e-009  1.7986e+000  0.0000e+000  1.8000e+000  1.8000e+000  1.8000e+000  1.8000e+000  1.8000e+000  1.8000e+000  1.8000e+000  1.8001e+000  1.7999e+000  1.8000e+000  7.9936e-005  7.6833e-005  7.6346e-005 -4.1508e-006
 2.189347e-009  1.7988e+000  0.0000e+000  1.8000e+000  1.8000e+000  1.8000e+000  1.8000e+000  1.8000e+000  1.8000e+000  1.8000e+000  1.8000e+000  1.7999e+000  1.8000e+000  3.8259e-005  5.7632e-005  5.6213e-005  1.3465e-005
 2.228887e-009  1.7987e+000  0.0000e+000  1.8000e+000  1.8000e+000  1.8000e+000  1.8000e+000  1.8000e+000  1.8000e+000  1.8000e+000  1.8000e+000  1.8000e+000  1.8000e+000  3.1799e-005  4.4432e-005  4.4403e-005  7.6823e-006
 2.271902e-009  1.7987e+000  0.0000e+000  1.8000e+000  1.8000e+000  1.8000e+000  1.8000e+000  1.8000e+000  1.8000e+000  1.8000e+000  1.8000e+000  1.8000e+000  1.8000e+000  2.7984e-005  3.7691e-005  3.8070e-005  1.6257e-005
